
T8784 000:327 SEGGER J-Link V4.96d Log File (0001ms, 0280ms total)
T8784 000:327 DLL Compiled: Jan 29 2015 11:45:37 (0001ms, 0280ms total)
T8784 000:327 Logging started @ 2024-12-15 19:10 (0001ms, 0280ms total)
T8784 000:328 JLINK_SetWarnOutHandler(...) (0000ms, 0280ms total)
T8784 000:328 JLINK_OpenEx(...)
Firmware: J-Link V9 compiled May  7 2021 16:26:12
Hardware: V9.70
S/N: 59700618
Feature(s): RDI, FlashBP, FlashDL, JFlash, GDB  returns O.K. (0275ms, 0555ms total)
T8784 000:603 JLINK_SetErrorOutHandler(...) (0000ms, 0555ms total)
T8784 000:603 JLINK_ExecCommand("ProjectFile = "D:\SRC\motorDriver\JLinkSettings.ini"", ...)  returns 0x00 (0001ms, 0556ms total)
T8784 000:605 JLINK_ExecCommand("Device = STM32F103C8", ...)Device "STM32F103C8" selected.  returns 0x00 (0001ms, 0557ms total)
T8784 000:606 JLINK_ExecCommand("DisableConnectionTimeout", ...)  returns 0x01 (0001ms, 0558ms total)
T8784 000:607 JLINK_GetHardwareVersion()  returns 0x17AE8 (0000ms, 0558ms total)
T8784 000:607 JLINK_GetDLLVersion()  returns 49604 (0000ms, 0558ms total)
T8784 000:607 JLINK_GetFirmwareString(...) (0000ms, 0558ms total)
T8784 000:622 JLINK_GetDLLVersion()  returns 49604 (0000ms, 0558ms total)
T8784 000:622 JLINK_GetCompileDateTime() (0000ms, 0558ms total)
T8784 000:626 JLINK_GetFirmwareString(...) (0000ms, 0558ms total)
T8784 000:630 JLINK_GetHardwareVersion()  returns 0x17AE8 (0000ms, 0558ms total)
T8784 000:649 JLINK_TIF_Select(JLINKARM_TIF_SWD)  returns 0x00 (0002ms, 0560ms total)
T8784 000:651 JLINK_SetSpeed(5000) (0001ms, 0561ms total)
T8784 000:652 JLINK_GetId() >0x108 TIF> >0x108 TIF>STM32Fxxxx: Cannot attach to CPU. Trying connect under reset. >0x108 TIF> >0x108 TIF>
                JLINK_EMU_HasCapEx(0x0000002C)  returns 0x01 (0000ms, 0000ms total)
               >0x0D TIF> >0x21 TIF> >0x0D TIF> >0x28 TIF> >0x0D TIF> >0x28 TIF> >0x0D TIF> >0x21 TIF> >0x0D TIF> >0x28 TIF> >0x0D TIF> >0x21 TIF> >0x0D TIF> >0x21 TIF> >0x0D TIF> >0x21 TIF> >0x0D TIF> >0x21 TIF> >0x0D TIF> >0x28 TIF> >0x0D TIF> >0x28 TIF> >0x0D TIF> >0x21 TIF> >0x0D TIF> >0x28 TIF> >0x0D TIF> >0x28 TIF> >0x0D TIF> >0x28 TIF> >0x0D TIF> >0x0D TIF> >0x21 TIF> >0x0D TIF> >0x21 TIF> >0x0D TIF> >0x28 TIF> >0x0D TIF> >0x0D TIF> >0x21 TIF> >0x0D TIF> >0x21 TIF>
Found Cortex-M3 r1p1, Little endian. -- CPU_WriteMem(4 bytes @ 0xE0002000) -- CPU_ReadMem(4 bytes @ 0xE000EDF0) -- CPU_ReadMem(4 bytes @ 0xE0002000)FPUnit: 6 code (BP) slots and 2 literal slots -- CPU_ReadMem(4 bytes @ 0xE000EDFC) -- CPU_WriteMem(4 bytes @ 0xE000EDFC) -- CPU_ReadMem(4 bytes @ 0xE0001000) -- CPU_WriteMem(4 bytes @ 0xE0001000) -- CPU_ReadMem(4 bytes @ 0xE000ED88) -- CPU_WriteMem(4 bytes @ 0xE000ED88) -- CPU_ReadMem(4 bytes @ 0xE000ED88) -- CPU_WriteMem(4 bytes @ 0xE000ED88)
 -- CPU_ReadMem(4 bytes @ 0xE00FF010)TPIU fitted. -- CPU_ReadMem(4 bytes @ 0xE00FF014) -- CPU_ReadMem(4 bytes @ 0xE00FF018) >0x0D TIF> >0x21 TIF>  returns 0x1BA01477 (0824ms, 1385ms total)
T8784 001:476 JLINK_GetDLLVersion()  returns 49604 (0000ms, 1385ms total)
T8784 001:476 JLINK_CORE_GetFound()  returns 0x30000FF (0001ms, 1386ms total)
T8784 001:477 JLINK_GetDebugInfo(0x100) -- Value=0xE00FF003  returns 0x00 (0000ms, 1386ms total)
T8784 001:478 JLINK_ReadMem (0xE00FF000, 0x0020 Bytes, ...) -- CPU is running -- CPU_ReadMem(32 bytes @ 0xE00FF000) - Data: 03 F0 F0 FF 03 20 F0 FF 03 30 F0 FF 03 10 F0 FF ...  returns 0x00 (0001ms, 1387ms total)
T8784 001:479 JLINK_ReadMem (0xE000EFF0, 0x0010 Bytes, ...) -- CPU is running -- CPU_ReadMem(16 bytes @ 0xE000EFF0) - Data: 0D 00 00 00 E0 00 00 00 05 00 00 00 B1 00 00 00  returns 0x00 (0000ms, 1387ms total)
T8784 001:479 JLINK_ReadMem (0xE000EFD0, 0x0020 Bytes, ...) -- CPU is running -- CPU_ReadMem(32 bytes @ 0xE000EFD0) - Data: 04 00 00 00 00 00 00 00 00 00 00 00 00 00 00 00 ...  returns 0x00 (0002ms, 1389ms total)
T8784 001:481 JLINK_ReadMem (0xE0001FF0, 0x0010 Bytes, ...) -- CPU is running -- CPU_ReadMem(16 bytes @ 0xE0001FF0) - Data: 0D 00 00 00 E0 00 00 00 05 00 00 00 B1 00 00 00  returns 0x00 (0000ms, 1389ms total)
T8784 001:481 JLINK_ReadMem (0xE0001FD0, 0x0020 Bytes, ...) -- CPU is running -- CPU_ReadMem(32 bytes @ 0xE0001FD0) - Data: 04 00 00 00 00 00 00 00 00 00 00 00 00 00 00 00 ...  returns 0x00 (0001ms, 1390ms total)
T8784 001:482 JLINK_ReadMem (0xE0002FF0, 0x0010 Bytes, ...) -- CPU is running -- CPU_ReadMem(16 bytes @ 0xE0002FF0) - Data: 0D 00 00 00 E0 00 00 00 05 00 00 00 B1 00 00 00  returns 0x00 (0001ms, 1391ms total)
T8784 001:483 JLINK_ReadMem (0xE0002FD0, 0x0020 Bytes, ...) -- CPU is running -- CPU_ReadMem(32 bytes @ 0xE0002FD0) - Data: 04 00 00 00 00 00 00 00 00 00 00 00 00 00 00 00 ...  returns 0x00 (0001ms, 1392ms total)
T8784 001:484 JLINK_ReadMem (0xE0000FF0, 0x0010 Bytes, ...) -- CPU is running -- CPU_ReadMem(16 bytes @ 0xE0000FF0) - Data: 0D 00 00 00 E0 00 00 00 05 00 00 00 B1 00 00 00  returns 0x00 (0000ms, 1392ms total)
T8784 001:484 JLINK_ReadMem (0xE0000FD0, 0x0020 Bytes, ...) -- CPU is running -- CPU_ReadMem(32 bytes @ 0xE0000FD0) - Data: 04 00 00 00 00 00 00 00 00 00 00 00 00 00 00 00 ...  returns 0x00 (0001ms, 1393ms total)
T8784 001:485 JLINK_ReadMem (0xE0040FF0, 0x0010 Bytes, ...) -- CPU is running -- CPU_ReadMem(16 bytes @ 0xE0040FF0) - Data: 0D 00 00 00 90 00 00 00 05 00 00 00 B1 00 00 00  returns 0x00 (0001ms, 1394ms total)
T8784 001:486 JLINK_ReadMem (0xE0040FD0, 0x0020 Bytes, ...) -- CPU is running -- CPU_ReadMem(32 bytes @ 0xE0040FD0) - Data: 04 00 00 00 00 00 00 00 00 00 00 00 00 00 00 00 ...  returns 0x00 (0001ms, 1395ms total)
T8784 001:487 JLINK_ReadMemU32(0xE000ED00, 0x0001 Items, ...) -- CPU is running -- CPU_ReadMem(4 bytes @ 0xE000ED00) - Data: 31 C2 1F 41  returns 0x01 (0000ms, 1395ms total)
T8784 001:487 JLINK_SetResetType(JLINKARM_RESET_TYPE_NORMAL)  returns JLINKARM_RESET_TYPE_NORMAL (0000ms, 1395ms total)
T8784 001:487 JLINK_Reset() -- CPU is running -- CPU_WriteMem(4 bytes @ 0xE000EDF0) -- CPU is running -- CPU_WriteMem(4 bytes @ 0xE000EDFC) >0x35 TIF> -- CPU is running -- CPU_WriteMem(4 bytes @ 0xE000ED0C) -- CPU is running -- CPU_ReadMem(4 bytes @ 0xE000EDF0) -- CPU is running -- CPU_ReadMem(4 bytes @ 0xE000EDF0) -- CPU is running -- CPU_ReadMem(4 bytes @ 0xE000EDF0) -- CPU is running -- CPU_ReadMem(4 bytes @ 0xE000EDF0) -- CPU is running -- CPU_ReadMem(4 bytes @ 0xE000EDF0) -- CPU is running
 -- CPU_ReadMem(4 bytes @ 0xE000EDF0) -- CPU is running -- CPU_ReadMem(4 bytes @ 0xE000EDF0) -- CPU is running -- CPU_ReadMem(4 bytes @ 0xE000EDF0) -- CPU is running -- CPU_ReadMem(4 bytes @ 0xE000EDF0) -- CPU is running -- CPU_ReadMem(4 bytes @ 0xE000EDF0) -- CPU is running -- CPU_ReadMem(4 bytes @ 0xE000EDF0) -- CPU is running -- CPU_ReadMem(4 bytes @ 0xE000EDF0) -- CPU is running -- CPU_ReadMem(4 bytes @ 0xE000EDF0) -- CPU is running -- CPU_ReadMem(4 bytes @ 0xE000EDF0) -- CPU is running
 -- CPU_ReadMem(4 bytes @ 0xE000EDF0) -- CPU is running -- CPU_ReadMem(4 bytes @ 0xE000EDF0) -- CPU is running -- CPU_ReadMem(4 bytes @ 0xE000EDF0) -- CPU is running -- CPU_ReadMem(4 bytes @ 0xE000EDF0) -- CPU is running -- CPU_ReadMem(4 bytes @ 0xE000EDF0) -- CPU is running -- CPU_ReadMem(4 bytes @ 0xE000EDF0) -- CPU is running -- CPU_ReadMem(4 bytes @ 0xE000EDF0) -- CPU is running -- CPU_ReadMem(4 bytes @ 0xE000EDF0) -- CPU is running -- CPU_ReadMem(4 bytes @ 0xE000EDF0) -- CPU is running
 -- CPU_ReadMem(4 bytes @ 0xE000EDF0) -- CPU is running -- CPU_ReadMem(4 bytes @ 0xE000EDF0) -- CPU is running -- CPU_ReadMem(4 bytes @ 0xE000EDF0) -- CPU is running -- CPU_ReadMem(4 bytes @ 0xE000EDF0) -- CPU is running -- CPU_ReadMem(4 bytes @ 0xE000EDF0) -- CPU is running -- CPU_ReadMem(4 bytes @ 0xE000EDF0) -- CPU is running -- CPU_ReadMem(4 bytes @ 0xE000EDF0) -- CPU is running -- CPU_ReadMem(4 bytes @ 0xE000EDF0) -- CPU is running -- CPU_ReadMem(4 bytes @ 0xE000EDF0) -- CPU is running
 -- CPU_ReadMem(4 bytes @ 0xE000EDF0) -- CPU is running -- CPU_ReadMem(4 bytes @ 0xE000EDF0) -- CPU is running -- CPU_ReadMem(4 bytes @ 0xE000EDF0) -- CPU is running -- CPU_ReadMem(4 bytes @ 0xE000EDF0) -- CPU is running -- CPU_ReadMem(4 bytes @ 0xE000EDF0) -- CPU is running -- CPU_ReadMem(4 bytes @ 0xE000EDF0) -- CPU is running -- CPU_ReadMem(4 bytes @ 0xE000EDF0) -- CPU is running -- CPU_ReadMem(4 bytes @ 0xE000EDF0) -- CPU is running -- CPU_ReadMem(4 bytes @ 0xE000EDF0) -- CPU is running
 -- CPU_ReadMem(4 bytes @ 0xE000EDF0) -- CPU is running -- CPU_ReadMem(4 bytes @ 0xE000EDF0) -- CPU is running -- CPU_ReadMem(4 bytes @ 0xE000EDF0) -- CPU is running -- CPU_ReadMem(4 bytes @ 0xE000EDF0) -- CPU is running -- CPU_ReadMem(4 bytes @ 0xE000EDF0) -- CPU is running -- CPU_ReadMem(4 bytes @ 0xE000EDF0) -- CPU is running -- CPU_ReadMem(4 bytes @ 0xE000EDF0) -- CPU is running -- CPU_ReadMem(4 bytes @ 0xE000EDF0) -- CPU is running -- CPU_ReadMem(4 bytes @ 0xE000EDF0) -- CPU is running
 -- CPU_ReadMem(4 bytes @ 0xE000EDF0) -- CPU is running -- CPU_ReadMem(4 bytes @ 0xE000EDF0) -- CPU is running -- CPU_ReadMem(4 bytes @ 0xE000EDF0) -- CPU is running -- CPU_ReadMem(4 bytes @ 0xE000EDF0) -- CPU is running -- CPU_ReadMem(4 bytes @ 0xE000EDF0) -- CPU is running -- CPU_ReadMem(4 bytes @ 0xE000EDF0) -- CPU is running -- CPU_ReadMem(4 bytes @ 0xE000EDF0) -- CPU is running -- CPU_ReadMem(4 bytes @ 0xE000EDF0) -- CPU is running -- CPU_ReadMem(4 bytes @ 0xE000EDF0) -- CPU is running
 -- CPU_ReadMem(4 bytes @ 0xE000EDF0) -- CPU is running -- CPU_ReadMem(4 bytes @ 0xE000EDF0) -- CPU is running -- CPU_ReadMem(4 bytes @ 0xE000EDF0) -- CPU is running -- CPU_ReadMem(4 bytes @ 0xE000EDF0) -- CPU is running -- CPU_ReadMem(4 bytes @ 0xE000EDF0) -- CPU is running -- CPU_ReadMem(4 bytes @ 0xE000EDF0) -- CPU is running -- CPU_ReadMem(4 bytes @ 0xE000EDF0) -- CPU is running -- CPU_ReadMem(4 bytes @ 0xE000EDF0) -- CPU is running -- CPU_ReadMem(4 bytes @ 0xE000EDF0) -- CPU is running
 -- CPU_ReadMem(4 bytes @ 0xE000EDF0) -- CPU is running -- CPU_ReadMem(4 bytes @ 0xE000EDF0) -- CPU is running -- CPU_ReadMem(4 bytes @ 0xE000EDF0) -- CPU is running -- CPU_ReadMem(4 bytes @ 0xE000EDF0) -- CPU is running -- CPU_ReadMem(4 bytes @ 0xE000EDF0) -- CPU is running -- CPU_ReadMem(4 bytes @ 0xE000EDF0) -- CPU is running -- CPU_ReadMem(4 bytes @ 0xE000EDF0) -- CPU is running -- CPU_ReadMem(4 bytes @ 0xE000EDF0) -- CPU is running -- CPU_ReadMem(4 bytes @ 0xE000EDF0) -- CPU is running
 -- CPU_ReadMem(4 bytes @ 0xE000EDF0) -- CPU is running -- CPU_ReadMem(4 bytes @ 0xE000EDF0) -- CPU is running -- CPU_ReadMem(4 bytes @ 0xE000EDF0) -- CPU is running -- CPU_ReadMem(4 bytes @ 0xE000EDF0) -- CPU is running -- CPU_ReadMem(4 bytes @ 0xE000EDF0) -- CPU is running -- CPU_ReadMem(4 bytes @ 0xE000EDF0) -- CPU is running -- CPU_ReadMem(4 bytes @ 0xE000EDF0) -- CPU is running -- CPU_ReadMem(4 bytes @ 0xE000EDF0) -- CPU is running -- CPU_ReadMem(4 bytes @ 0xE000EDF0) -- CPU is running
 -- CPU_ReadMem(4 bytes @ 0xE000EDF0) -- CPU is running -- CPU_ReadMem(4 bytes @ 0xE000EDF0) -- CPU is running -- CPU_ReadMem(4 bytes @ 0xE000EDF0) -- CPU is running -- CPU_ReadMem(4 bytes @ 0xE000EDF0) -- CPU is running -- CPU_ReadMem(4 bytes @ 0xE000EDF0) -- CPU is running -- CPU_ReadMem(4 bytes @ 0xE000EDF0) -- CPU is running -- CPU_ReadMem(4 bytes @ 0xE000EDF0) -- CPU is running -- CPU_ReadMem(4 bytes @ 0xE000EDF0) -- CPU is running -- CPU_ReadMem(4 bytes @ 0xE000EDF0) -- CPU is running
 -- CPU_ReadMem(4 bytes @ 0xE000EDF0) -- CPU is running -- CPU_ReadMem(4 bytes @ 0xE000EDF0) -- CPU is running -- CPU_ReadMem(4 bytes @ 0xE000EDF0) -- CPU is running -- CPU_ReadMem(4 bytes @ 0xE000EDF0) -- CPU is running -- CPU_ReadMem(4 bytes @ 0xE000EDF0) -- CPU is running -- CPU_ReadMem(4 bytes @ 0xE000EDF0) -- CPU is running -- CPU_ReadMem(4 bytes @ 0xE000EDF0) -- CPU is running -- CPU_ReadMem(4 bytes @ 0xE000EDF0) -- CPU is running -- CPU_ReadMem(4 bytes @ 0xE000EDF0) -- CPU is running
 -- CPU_ReadMem(4 bytes @ 0xE000EDF0) -- CPU is running -- CPU_ReadMem(4 bytes @ 0xE000EDF0) -- CPU is running -- CPU_ReadMem(4 bytes @ 0xE000EDF0) -- CPU is running -- CPU_ReadMem(4 bytes @ 0xE000EDF0) -- CPU is running -- CPU_ReadMem(4 bytes @ 0xE000EDF0) -- CPU is running -- CPU_ReadMem(4 bytes @ 0xE000EDF0) -- CPU is running -- CPU_ReadMem(4 bytes @ 0xE000EDF0) -- CPU is running -- CPU_ReadMem(4 bytes @ 0xE000EDF0) -- CPU is running -- CPU_ReadMem(4 bytes @ 0xE000EDF0) -- CPU is running
 -- CPU_ReadMem(4 bytes @ 0xE000EDF0) -- CPU is running -- CPU_ReadMem(4 bytes @ 0xE000EDF0) -- CPU is running -- CPU_ReadMem(4 bytes @ 0xE000EDF0) -- CPU is running -- CPU_ReadMem(4 bytes @ 0xE000EDF0) -- CPU is running -- CPU_ReadMem(4 bytes @ 0xE000EDF0) -- CPU is running -- CPU_ReadMem(4 bytes @ 0xE000EDF0) -- CPU is running -- CPU_ReadMem(4 bytes @ 0xE000EDF0) -- CPU is running -- CPU_ReadMem(4 bytes @ 0xE000EDF0) -- CPU is running -- CPU_ReadMem(4 bytes @ 0xE000EDF0) -- CPU is running
 -- CPU_ReadMem(4 bytes @ 0xE000EDF0) -- CPU is running -- CPU_WriteMem(4 bytes @ 0xE000EDF0) -- CPU is running -- CPU_WriteMem(4 bytes @ 0xE000EDFC) -- CPU is running -- CPU_ReadMem(4 bytes @ 0xE000EDF0) -- CPU_WriteMem(4 bytes @ 0xE0002000) -- CPU_ReadMem(4 bytes @ 0xE000EDFC) -- CPU_ReadMem(4 bytes @ 0xE0001000) (0110ms, 1505ms total)
T8784 001:597 JLINK_Halt()  returns 0x00 (0000ms, 1505ms total)
T8784 001:597 JLINK_IsHalted()  returns TRUE (0000ms, 1505ms total)
T8784 001:597 JLINK_ReadMemU32(0xE000EDF0, 0x0001 Items, ...) -- CPU_ReadMem(4 bytes @ 0xE000EDF0) - Data: 03 00 03 00  returns 0x01 (0001ms, 1506ms total)
T8784 001:598 JLINK_WriteU32(0xE000EDF0, 0xA05F0003) -- CPU_WriteMem(4 bytes @ 0xE000EDF0)  returns 0x00 (0001ms, 1507ms total)
T8784 001:599 JLINK_WriteU32(0xE000EDFC, 0x01000000) -- CPU_WriteMem(4 bytes @ 0xE000EDFC)  returns 0x00 (0001ms, 1508ms total)
T8784 001:608 JLINK_GetHWStatus(...)  returns 0x00 (0000ms, 1508ms total)
T8784 001:620 JLINK_GetNumBPUnits(Type = 0xFFFFFF00)  returns 0x06 (0000ms, 1509ms total)
T8784 001:620 JLINK_GetNumBPUnits(Type = 0xF0)  returns 0x2000 (0000ms, 1509ms total)
T8784 001:620 JLINK_GetNumWPUnits()  returns 0x04 (0000ms, 1509ms total)
T8784 001:627 JLINK_GetSpeed()  returns 0xFA0 (0000ms, 1509ms total)
T8784 001:630 JLINK_ReadMemU32(0xE000E004, 0x0001 Items, ...) -- CPU_ReadMem(4 bytes @ 0xE000E004) - Data: 01 00 00 00  returns 0x01 (0002ms, 1511ms total)
T8784 001:632 JLINK_ReadMemU32(0xE000E004, 0x0001 Items, ...) -- CPU_ReadMem(4 bytes @ 0xE000E004) - Data: 01 00 00 00  returns 0x01 (0000ms, 1511ms total)
T8784 001:632 JLINK_WriteMem(0xE0001000, 0x001C Bytes, ...) - Data: 01 00 00 00 00 00 00 00 00 00 00 00 00 00 00 00 ... -- CPU_WriteMem(28 bytes @ 0xE0001000)  returns 0x1C (0001ms, 1512ms total)
T8784 001:633 JLINK_ReadMem (0xE0001000, 0x001C Bytes, ...) -- CPU_ReadMem(28 bytes @ 0xE0001000) - Data: 01 00 00 40 00 00 00 00 00 00 00 00 00 00 00 00 ...  returns 0x00 (0001ms, 1513ms total)
T8784 001:634 JLINK_Halt()  returns 0x00 (0000ms, 1513ms total)
T8784 001:634 JLINK_IsHalted()  returns TRUE (0000ms, 1513ms total)
T8784 001:637 JLINK_WriteMem(0x20000000, 0x0164 Bytes, ...) - Data: 00 BE 0A E0 0D 78 2D 06 68 40 08 24 40 00 00 D3 ... -- CPU_WriteMem(356 bytes @ 0x20000000)  returns 0x164 (0003ms, 1516ms total)
T8784 001:640 JLINK_WriteReg(R0, 0x08000000)  returns 0x00 (0000ms, 1516ms total)
T8784 001:640 JLINK_WriteReg(R1, 0x00B71B00)  returns 0x00 (0000ms, 1516ms total)
T8784 001:640 JLINK_WriteReg(R2, 0x00000001)  returns 0x00 (0000ms, 1516ms total)
T8784 001:640 JLINK_WriteReg(R3, 0x00000000)  returns 0x00 (0000ms, 1516ms total)
T8784 001:640 JLINK_WriteReg(R4, 0x00000000)  returns 0x00 (0000ms, 1516ms total)
T8784 001:640 JLINK_WriteReg(R5, 0x00000000)  returns 0x00 (0000ms, 1516ms total)
T8784 001:640 JLINK_WriteReg(R6, 0x00000000)  returns 0x00 (0000ms, 1516ms total)
T8784 001:640 JLINK_WriteReg(R7, 0x00000000)  returns 0x00 (0000ms, 1516ms total)
T8784 001:640 JLINK_WriteReg(R8, 0x00000000)  returns 0x00 (0000ms, 1516ms total)
T8784 001:640 JLINK_WriteReg(R9, 0x20000160)  returns 0x00 (0000ms, 1516ms total)
T8784 001:640 JLINK_WriteReg(R10, 0x00000000)  returns 0x00 (0000ms, 1516ms total)
T8784 001:640 JLINK_WriteReg(R11, 0x00000000)  returns 0x00 (0000ms, 1516ms total)
T8784 001:640 JLINK_WriteReg(R12, 0x00000000)  returns 0x00 (0000ms, 1516ms total)
T8784 001:640 JLINK_WriteReg(R13 (SP), 0x20001000)  returns 0x00 (0000ms, 1516ms total)
T8784 001:640 JLINK_WriteReg(R14, 0x20000001)  returns 0x00 (0000ms, 1516ms total)
T8784 001:640 JLINK_WriteReg(R15 (PC), 0x20000038)  returns 0x00 (0000ms, 1516ms total)
T8784 001:640 JLINK_WriteReg(XPSR, 0x01000000)  returns 0x00 (0000ms, 1516ms total)
T8784 001:640 JLINK_WriteReg(MSP, 0x20001000)  returns 0x00 (0000ms, 1516ms total)
T8784 001:640 JLINK_WriteReg(PSP, 0x20001000)  returns 0x00 (0000ms, 1516ms total)
T8784 001:640 JLINK_WriteReg(CFBP, 0x00000000)  returns 0x00 (0000ms, 1516ms total)
T8784 001:640 JLINK_SetBPEx(Addr = 0x20000000, Type = 0xFFFFFFF2) -- CPU_ReadMem(2 bytes @ 0x20000000)  returns 0x00000001 (0001ms, 1517ms total)
T8784 001:641 JLINK_Go() -- CPU_WriteMem(2 bytes @ 0x20000000) -- CPU_WriteMem(4 bytes @ 0xE0002008) -- CPU_WriteMem(4 bytes @ 0xE000200C) -- CPU_WriteMem(4 bytes @ 0xE0002010) -- CPU_WriteMem(4 bytes @ 0xE0002014) -- CPU_WriteMem(4 bytes @ 0xE0002018) -- CPU_WriteMem(4 bytes @ 0xE000201C) -- CPU_WriteMem(4 bytes @ 0xE0001004) (0005ms, 1522ms total)
T8784 001:646 JLINK_IsHalted() -- CPU_ReadMem(2 bytes @ 0x20000000)  returns TRUE (0004ms, 1526ms total)
T8784 001:650 JLINK_ReadReg(R15 (PC))  returns 0x20000000 (0000ms, 1522ms total)
T8784 001:650 JLINK_ClrBPEx(BPHandle = 0x00000001)  returns 0x00 (0000ms, 1522ms total)
T8784 001:650 JLINK_ReadReg(R0)  returns 0x00000000 (0000ms, 1522ms total)
T8784 001:650 JLINK_WriteReg(R0, 0x08000000)  returns 0x00 (0000ms, 1522ms total)
T8784 001:650 JLINK_WriteReg(R1, 0x00B71B00)  returns 0x00 (0000ms, 1522ms total)
T8784 001:650 JLINK_WriteReg(R2, 0x00000001)  returns 0x00 (0000ms, 1522ms total)
T8784 001:650 JLINK_WriteReg(R3, 0x00000000)  returns 0x00 (0000ms, 1522ms total)
T8784 001:650 JLINK_WriteReg(R4, 0x00000000)  returns 0x00 (0001ms, 1523ms total)
T8784 001:651 JLINK_WriteReg(R5, 0x00000000)  returns 0x00 (0000ms, 1523ms total)
T8784 001:651 JLINK_WriteReg(R6, 0x00000000)  returns 0x00 (0000ms, 1523ms total)
T8784 001:651 JLINK_WriteReg(R7, 0x00000000)  returns 0x00 (0000ms, 1523ms total)
T8784 001:651 JLINK_WriteReg(R8, 0x00000000)  returns 0x00 (0000ms, 1523ms total)
T8784 001:651 JLINK_WriteReg(R9, 0x20000160)  returns 0x00 (0000ms, 1523ms total)
T8784 001:651 JLINK_WriteReg(R10, 0x00000000)  returns 0x00 (0000ms, 1523ms total)
T8784 001:651 JLINK_WriteReg(R11, 0x00000000)  returns 0x00 (0000ms, 1523ms total)
T8784 001:651 JLINK_WriteReg(R12, 0x00000000)  returns 0x00 (0000ms, 1523ms total)
T8784 001:651 JLINK_WriteReg(R13 (SP), 0x20001000)  returns 0x00 (0000ms, 1523ms total)
T8784 001:651 JLINK_WriteReg(R14, 0x20000001)  returns 0x00 (0000ms, 1523ms total)
T8784 001:651 JLINK_WriteReg(R15 (PC), 0x2000007C)  returns 0x00 (0000ms, 1523ms total)
T8784 001:651 JLINK_WriteReg(XPSR, 0x01000000)  returns 0x00 (0000ms, 1523ms total)
T8784 001:651 JLINK_WriteReg(MSP, 0x20001000)  returns 0x00 (0000ms, 1523ms total)
T8784 001:651 JLINK_WriteReg(PSP, 0x20001000)  returns 0x00 (0000ms, 1523ms total)
T8784 001:651 JLINK_WriteReg(CFBP, 0x00000000)  returns 0x00 (0000ms, 1523ms total)
T8784 001:651 JLINK_SetBPEx(Addr = 0x20000000, Type = 0xFFFFFFF2)  returns 0x00000002 (0000ms, 1523ms total)
T8784 001:651 JLINK_Go() (0002ms, 1525ms total)
T8784 001:653 JLINK_IsHalted()  returns FALSE (0001ms, 1526ms total)
T8784 001:729 JLINK_IsHalted() -- CPU_ReadMem(2 bytes @ 0x20000000)  returns TRUE (0002ms, 1527ms total)
T8784 001:731 JLINK_ReadReg(R15 (PC))  returns 0x20000000 (0000ms, 1525ms total)
T8784 001:731 JLINK_ClrBPEx(BPHandle = 0x00000002)  returns 0x00 (0001ms, 1526ms total)
T8784 001:732 JLINK_ReadReg(R0)  returns 0x00000000 (0000ms, 1526ms total)
T8784 001:786 JLINK_WriteReg(R0, 0x00000001)  returns 0x00 (0000ms, 1526ms total)
T8784 001:786 JLINK_WriteReg(R1, 0x00B71B00)  returns 0x00 (0000ms, 1526ms total)
T8784 001:786 JLINK_WriteReg(R2, 0x00000001)  returns 0x00 (0000ms, 1526ms total)
T8784 001:786 JLINK_WriteReg(R3, 0x00000000)  returns 0x00 (0001ms, 1527ms total)
T8784 001:787 JLINK_WriteReg(R4, 0x00000000)  returns 0x00 (0000ms, 1527ms total)
T8784 001:787 JLINK_WriteReg(R5, 0x00000000)  returns 0x00 (0000ms, 1527ms total)
T8784 001:787 JLINK_WriteReg(R6, 0x00000000)  returns 0x00 (0000ms, 1527ms total)
T8784 001:787 JLINK_WriteReg(R7, 0x00000000)  returns 0x00 (0000ms, 1527ms total)
T8784 001:787 JLINK_WriteReg(R8, 0x00000000)  returns 0x00 (0000ms, 1527ms total)
T8784 001:787 JLINK_WriteReg(R9, 0x20000160)  returns 0x00 (0000ms, 1527ms total)
T8784 001:787 JLINK_WriteReg(R10, 0x00000000)  returns 0x00 (0000ms, 1527ms total)
T8784 001:787 JLINK_WriteReg(R11, 0x00000000)  returns 0x00 (0000ms, 1527ms total)
T8784 001:787 JLINK_WriteReg(R12, 0x00000000)  returns 0x00 (0000ms, 1527ms total)
T8784 001:787 JLINK_WriteReg(R13 (SP), 0x20001000)  returns 0x00 (0000ms, 1527ms total)
T8784 001:787 JLINK_WriteReg(R14, 0x20000001)  returns 0x00 (0000ms, 1527ms total)
T8784 001:787 JLINK_WriteReg(R15 (PC), 0x2000006A)  returns 0x00 (0001ms, 1528ms total)
T8784 001:788 JLINK_WriteReg(XPSR, 0x01000000)  returns 0x00 (0000ms, 1528ms total)
T8784 001:788 JLINK_WriteReg(MSP, 0x20001000)  returns 0x00 (0000ms, 1528ms total)
T8784 001:788 JLINK_WriteReg(PSP, 0x20001000)  returns 0x00 (0000ms, 1528ms total)
T8784 001:788 JLINK_WriteReg(CFBP, 0x00000000)  returns 0x00 (0000ms, 1528ms total)
T8784 001:788 JLINK_SetBPEx(Addr = 0x20000000, Type = 0xFFFFFFF2)  returns 0x00000003 (0000ms, 1528ms total)
T8784 001:788 JLINK_Go() (0002ms, 1530ms total)
T8784 001:790 JLINK_IsHalted() -- CPU_ReadMem(2 bytes @ 0x20000000)  returns TRUE (0004ms, 1534ms total)
T8784 001:794 JLINK_ReadReg(R15 (PC))  returns 0x20000000 (0000ms, 1530ms total)
T8784 001:794 JLINK_ClrBPEx(BPHandle = 0x00000003)  returns 0x00 (0000ms, 1530ms total)
T8784 001:794 JLINK_ReadReg(R0)  returns 0x00000000 (0000ms, 1530ms total)
T8784 001:804 JLINK_WriteMem(0x20000000, 0x0164 Bytes, ...) - Data: 00 BE 0A E0 0D 78 2D 06 68 40 08 24 40 00 00 D3 ... -- CPU_WriteMem(356 bytes @ 0x20000000)  returns 0x164 (0002ms, 1532ms total)
T8784 001:806 JLINK_WriteReg(R0, 0x08000000)  returns 0x00 (0000ms, 1532ms total)
T8784 001:807 JLINK_WriteReg(R1, 0x00B71B00)  returns 0x00 (0000ms, 1533ms total)
T8784 001:807 JLINK_WriteReg(R2, 0x00000002)  returns 0x00 (0000ms, 1533ms total)
T8784 001:807 JLINK_WriteReg(R3, 0x00000000)  returns 0x00 (0000ms, 1533ms total)
T8784 001:807 JLINK_WriteReg(R4, 0x00000000)  returns 0x00 (0000ms, 1533ms total)
T8784 001:807 JLINK_WriteReg(R5, 0x00000000)  returns 0x00 (0000ms, 1533ms total)
T8784 001:807 JLINK_WriteReg(R6, 0x00000000)  returns 0x00 (0000ms, 1533ms total)
T8784 001:807 JLINK_WriteReg(R7, 0x00000000)  returns 0x00 (0000ms, 1533ms total)
T8784 001:807 JLINK_WriteReg(R8, 0x00000000)  returns 0x00 (0000ms, 1533ms total)
T8784 001:807 JLINK_WriteReg(R9, 0x20000160)  returns 0x00 (0000ms, 1533ms total)
T8784 001:807 JLINK_WriteReg(R10, 0x00000000)  returns 0x00 (0000ms, 1533ms total)
T8784 001:807 JLINK_WriteReg(R11, 0x00000000)  returns 0x00 (0000ms, 1533ms total)
T8784 001:807 JLINK_WriteReg(R12, 0x00000000)  returns 0x00 (0000ms, 1533ms total)
T8784 001:807 JLINK_WriteReg(R13 (SP), 0x20001000)  returns 0x00 (0000ms, 1533ms total)
T8784 001:807 JLINK_WriteReg(R14, 0x20000001)  returns 0x00 (0000ms, 1533ms total)
T8784 001:807 JLINK_WriteReg(R15 (PC), 0x20000038)  returns 0x00 (0000ms, 1533ms total)
T8784 001:807 JLINK_WriteReg(XPSR, 0x01000000)  returns 0x00 (0000ms, 1533ms total)
T8784 001:807 JLINK_WriteReg(MSP, 0x20001000)  returns 0x00 (0000ms, 1533ms total)
T8784 001:807 JLINK_WriteReg(PSP, 0x20001000)  returns 0x00 (0000ms, 1533ms total)
T8784 001:807 JLINK_WriteReg(CFBP, 0x00000000)  returns 0x00 (0000ms, 1533ms total)
T8784 001:807 JLINK_SetBPEx(Addr = 0x20000000, Type = 0xFFFFFFF2) -- CPU_ReadMem(2 bytes @ 0x20000000)  returns 0x00000004 (0001ms, 1534ms total)
T8784 001:808 JLINK_Go() -- CPU_WriteMem(2 bytes @ 0x20000000) (0002ms, 1536ms total)
T8784 001:810 JLINK_IsHalted() -- CPU_ReadMem(2 bytes @ 0x20000000)  returns TRUE (0004ms, 1540ms total)
T8784 001:814 JLINK_ReadReg(R15 (PC))  returns 0x20000000 (0000ms, 1536ms total)
T8784 001:814 JLINK_ClrBPEx(BPHandle = 0x00000004)  returns 0x00 (0000ms, 1536ms total)
T8784 001:814 JLINK_ReadReg(R0)  returns 0x00000000 (0000ms, 1536ms total)
T8784 001:814 JLINK_WriteMem(0x20000164, 0x0400 Bytes, ...) - Data: B8 0C 00 20 A1 01 00 08 85 38 00 08 7D 38 00 08 ... -- CPU_WriteMem(1024 bytes @ 0x20000164)  returns 0x400 (0005ms, 1541ms total)
T8784 001:819 JLINK_WriteReg(R0, 0x08000000)  returns 0x00 (0000ms, 1541ms total)
T8784 001:819 JLINK_WriteReg(R1, 0x00000400)  returns 0x00 (0000ms, 1541ms total)
T8784 001:819 JLINK_WriteReg(R2, 0x20000164)  returns 0x00 (0000ms, 1541ms total)
T8784 001:819 JLINK_WriteReg(R3, 0x00000000)  returns 0x00 (0000ms, 1541ms total)
T8784 001:819 JLINK_WriteReg(R4, 0x00000000)  returns 0x00 (0000ms, 1541ms total)
T8784 001:819 JLINK_WriteReg(R5, 0x00000000)  returns 0x00 (0000ms, 1541ms total)
T8784 001:819 JLINK_WriteReg(R6, 0x00000000)  returns 0x00 (0000ms, 1541ms total)
T8784 001:820 JLINK_WriteReg(R7, 0x00000000)  returns 0x00 (0000ms, 1542ms total)
T8784 001:820 JLINK_WriteReg(R8, 0x00000000)  returns 0x00 (0000ms, 1542ms total)
T8784 001:820 JLINK_WriteReg(R9, 0x20000160)  returns 0x00 (0000ms, 1542ms total)
T8784 001:820 JLINK_WriteReg(R10, 0x00000000)  returns 0x00 (0000ms, 1542ms total)
T8784 001:820 JLINK_WriteReg(R11, 0x00000000)  returns 0x00 (0000ms, 1542ms total)
T8784 001:820 JLINK_WriteReg(R12, 0x00000000)  returns 0x00 (0000ms, 1542ms total)
T8784 001:820 JLINK_WriteReg(R13 (SP), 0x20001000)  returns 0x00 (0000ms, 1542ms total)
T8784 001:820 JLINK_WriteReg(R14, 0x20000001)  returns 0x00 (0000ms, 1542ms total)
T8784 001:820 JLINK_WriteReg(R15 (PC), 0x200000F4)  returns 0x00 (0000ms, 1542ms total)
T8784 001:820 JLINK_WriteReg(XPSR, 0x01000000)  returns 0x00 (0000ms, 1542ms total)
T8784 001:820 JLINK_WriteReg(MSP, 0x20001000)  returns 0x00 (0000ms, 1542ms total)
T8784 001:820 JLINK_WriteReg(PSP, 0x20001000)  returns 0x00 (0000ms, 1542ms total)
T8784 001:820 JLINK_WriteReg(CFBP, 0x00000000)  returns 0x00 (0000ms, 1542ms total)
T8784 001:820 JLINK_SetBPEx(Addr = 0x20000000, Type = 0xFFFFFFF2)  returns 0x00000005 (0000ms, 1542ms total)
T8784 001:820 JLINK_Go() (0002ms, 1544ms total)
T8784 001:822 JLINK_IsHalted()  returns FALSE (0000ms, 1544ms total)
T8784 001:845 JLINK_IsHalted()  returns FALSE (0000ms, 1544ms total)
T8784 001:847 JLINK_IsHalted()  returns FALSE (0000ms, 1544ms total)
T8784 001:850 JLINK_IsHalted()  returns FALSE (0000ms, 1544ms total)
T8784 001:852 JLINK_IsHalted()  returns FALSE (0000ms, 1544ms total)
T8784 001:857 JLINK_IsHalted() -- CPU_ReadMem(2 bytes @ 0x20000000)  returns TRUE (0003ms, 1547ms total)
T8784 001:860 JLINK_ReadReg(R15 (PC))  returns 0x20000000 (0000ms, 1544ms total)
T8784 001:860 JLINK_ClrBPEx(BPHandle = 0x00000005)  returns 0x00 (0000ms, 1544ms total)
T8784 001:860 JLINK_ReadReg(R0)  returns 0x00000000 (0000ms, 1544ms total)
T8784 001:861 JLINK_WriteMem(0x20000164, 0x0400 Bytes, ...) - Data: 62 55 6D 1E F9 D5 B3 46 01 22 08 43 02 D0 00 22 ... -- CPU_WriteMem(1024 bytes @ 0x20000164)  returns 0x400 (0004ms, 1548ms total)
T8784 001:865 JLINK_WriteReg(R0, 0x08000400)  returns 0x00 (0000ms, 1548ms total)
T8784 001:865 JLINK_WriteReg(R1, 0x00000400)  returns 0x00 (0000ms, 1548ms total)
T8784 001:865 JLINK_WriteReg(R2, 0x20000164)  returns 0x00 (0000ms, 1548ms total)
T8784 001:865 JLINK_WriteReg(R3, 0x00000000)  returns 0x00 (0000ms, 1548ms total)
T8784 001:865 JLINK_WriteReg(R4, 0x00000000)  returns 0x00 (0000ms, 1548ms total)
T8784 001:866 JLINK_WriteReg(R5, 0x00000000)  returns 0x00 (0000ms, 1549ms total)
T8784 001:866 JLINK_WriteReg(R6, 0x00000000)  returns 0x00 (0000ms, 1549ms total)
T8784 001:866 JLINK_WriteReg(R7, 0x00000000)  returns 0x00 (0000ms, 1549ms total)
T8784 001:866 JLINK_WriteReg(R8, 0x00000000)  returns 0x00 (0000ms, 1549ms total)
T8784 001:866 JLINK_WriteReg(R9, 0x20000160)  returns 0x00 (0000ms, 1549ms total)
T8784 001:866 JLINK_WriteReg(R10, 0x00000000)  returns 0x00 (0000ms, 1549ms total)
T8784 001:866 JLINK_WriteReg(R11, 0x00000000)  returns 0x00 (0000ms, 1549ms total)
T8784 001:866 JLINK_WriteReg(R12, 0x00000000)  returns 0x00 (0000ms, 1549ms total)
T8784 001:866 JLINK_WriteReg(R13 (SP), 0x20001000)  returns 0x00 (0000ms, 1549ms total)
T8784 001:866 JLINK_WriteReg(R14, 0x20000001)  returns 0x00 (0000ms, 1549ms total)
T8784 001:866 JLINK_WriteReg(R15 (PC), 0x200000F4)  returns 0x00 (0000ms, 1549ms total)
T8784 001:866 JLINK_WriteReg(XPSR, 0x01000000)  returns 0x00 (0000ms, 1549ms total)
T8784 001:866 JLINK_WriteReg(MSP, 0x20001000)  returns 0x00 (0001ms, 1550ms total)
T8784 001:867 JLINK_WriteReg(PSP, 0x20001000)  returns 0x00 (0000ms, 1550ms total)
T8784 001:867 JLINK_WriteReg(CFBP, 0x00000000)  returns 0x00 (0000ms, 1550ms total)
T8784 001:867 JLINK_SetBPEx(Addr = 0x20000000, Type = 0xFFFFFFF2)  returns 0x00000006 (0000ms, 1550ms total)
T8784 001:867 JLINK_Go() (0001ms, 1551ms total)
T8784 001:868 JLINK_IsHalted()  returns FALSE (0001ms, 1552ms total)
T8784 001:875 JLINK_IsHalted()  returns FALSE (0000ms, 1551ms total)
T8784 001:877 JLINK_IsHalted()  returns FALSE (0000ms, 1551ms total)
T8784 001:879 JLINK_IsHalted()  returns FALSE (0001ms, 1552ms total)
T8784 001:882 JLINK_IsHalted()  returns FALSE (0001ms, 1552ms total)
T8784 001:891 JLINK_IsHalted()  returns FALSE (0001ms, 1552ms total)
T8784 001:893 JLINK_IsHalted()  returns FALSE (0001ms, 1552ms total)
T8784 001:896 JLINK_IsHalted()  returns FALSE (0000ms, 1551ms total)
T8784 001:898 JLINK_IsHalted()  returns FALSE (0000ms, 1551ms total)
T8784 001:903 JLINK_IsHalted() -- CPU_ReadMem(2 bytes @ 0x20000000)  returns TRUE (0004ms, 1555ms total)
T8784 001:907 JLINK_ReadReg(R15 (PC))  returns 0x20000000 (0000ms, 1551ms total)
T8784 001:907 JLINK_ClrBPEx(BPHandle = 0x00000006)  returns 0x00 (0000ms, 1551ms total)
T8784 001:907 JLINK_ReadReg(R0)  returns 0x00000000 (0000ms, 1551ms total)
T8784 001:908 JLINK_WriteMem(0x20000164, 0x0400 Bytes, ...) - Data: 15 A5 21 F0 10 00 20 60 A0 69 C0 1E A0 61 0F B1 ... -- CPU_WriteMem(1024 bytes @ 0x20000164)  returns 0x400 (0004ms, 1555ms total)
T8784 001:912 JLINK_WriteReg(R0, 0x08000800)  returns 0x00 (0000ms, 1555ms total)
T8784 001:912 JLINK_WriteReg(R1, 0x00000400)  returns 0x00 (0000ms, 1555ms total)
T8784 001:912 JLINK_WriteReg(R2, 0x20000164)  returns 0x00 (0000ms, 1555ms total)
T8784 001:912 JLINK_WriteReg(R3, 0x00000000)  returns 0x00 (0000ms, 1555ms total)
T8784 001:912 JLINK_WriteReg(R4, 0x00000000)  returns 0x00 (0000ms, 1555ms total)
T8784 001:912 JLINK_WriteReg(R5, 0x00000000)  returns 0x00 (0000ms, 1555ms total)
T8784 001:912 JLINK_WriteReg(R6, 0x00000000)  returns 0x00 (0000ms, 1555ms total)
T8784 001:912 JLINK_WriteReg(R7, 0x00000000)  returns 0x00 (0000ms, 1555ms total)
T8784 001:912 JLINK_WriteReg(R8, 0x00000000)  returns 0x00 (0001ms, 1556ms total)
T8784 001:913 JLINK_WriteReg(R9, 0x20000160)  returns 0x00 (0000ms, 1556ms total)
T8784 001:913 JLINK_WriteReg(R10, 0x00000000)  returns 0x00 (0000ms, 1556ms total)
T8784 001:913 JLINK_WriteReg(R11, 0x00000000)  returns 0x00 (0000ms, 1556ms total)
T8784 001:913 JLINK_WriteReg(R12, 0x00000000)  returns 0x00 (0000ms, 1556ms total)
T8784 001:913 JLINK_WriteReg(R13 (SP), 0x20001000)  returns 0x00 (0000ms, 1556ms total)
T8784 001:913 JLINK_WriteReg(R14, 0x20000001)  returns 0x00 (0000ms, 1556ms total)
T8784 001:913 JLINK_WriteReg(R15 (PC), 0x200000F4)  returns 0x00 (0000ms, 1556ms total)
T8784 001:913 JLINK_WriteReg(XPSR, 0x01000000)  returns 0x00 (0000ms, 1556ms total)
T8784 001:913 JLINK_WriteReg(MSP, 0x20001000)  returns 0x00 (0000ms, 1556ms total)
T8784 001:913 JLINK_WriteReg(PSP, 0x20001000)  returns 0x00 (0000ms, 1556ms total)
T8784 001:913 JLINK_WriteReg(CFBP, 0x00000000)  returns 0x00 (0000ms, 1556ms total)
T8784 001:913 JLINK_SetBPEx(Addr = 0x20000000, Type = 0xFFFFFFF2)  returns 0x00000007 (0000ms, 1556ms total)
T8784 001:913 JLINK_Go() (0003ms, 1559ms total)
T8784 001:916 JLINK_IsHalted()  returns FALSE (0001ms, 1560ms total)
T8784 001:940 JLINK_IsHalted()  returns FALSE (0001ms, 1560ms total)
T8784 001:943 JLINK_IsHalted()  returns FALSE (0000ms, 1559ms total)
T8784 001:952 JLINK_IsHalted() -- CPU_ReadMem(2 bytes @ 0x20000000)  returns TRUE (0002ms, 1561ms total)
T8784 001:954 JLINK_ReadReg(R15 (PC))  returns 0x20000000 (0000ms, 1559ms total)
T8784 001:954 JLINK_ClrBPEx(BPHandle = 0x00000007)  returns 0x00 (0000ms, 1559ms total)
T8784 001:954 JLINK_ReadReg(R0)  returns 0x00000000 (0000ms, 1559ms total)
T8784 001:956 JLINK_WriteMem(0x20000164, 0x0400 Bytes, ...) - Data: C7 02 B2 EB C7 02 61 EB 57 71 03 9F 4F EA 81 61 ... -- CPU_WriteMem(1024 bytes @ 0x20000164)  returns 0x400 (0004ms, 1563ms total)
T8784 001:960 JLINK_WriteReg(R0, 0x08000C00)  returns 0x00 (0000ms, 1563ms total)
T8784 001:960 JLINK_WriteReg(R1, 0x00000400)  returns 0x00 (0000ms, 1563ms total)
T8784 001:960 JLINK_WriteReg(R2, 0x20000164)  returns 0x00 (0000ms, 1563ms total)
T8784 001:960 JLINK_WriteReg(R3, 0x00000000)  returns 0x00 (0000ms, 1563ms total)
T8784 001:960 JLINK_WriteReg(R4, 0x00000000)  returns 0x00 (0000ms, 1563ms total)
T8784 001:960 JLINK_WriteReg(R5, 0x00000000)  returns 0x00 (0000ms, 1563ms total)
T8784 001:960 JLINK_WriteReg(R6, 0x00000000)  returns 0x00 (0000ms, 1563ms total)
T8784 001:960 JLINK_WriteReg(R7, 0x00000000)  returns 0x00 (0000ms, 1563ms total)
T8784 001:960 JLINK_WriteReg(R8, 0x00000000)  returns 0x00 (0000ms, 1563ms total)
T8784 001:960 JLINK_WriteReg(R9, 0x20000160)  returns 0x00 (0000ms, 1563ms total)
T8784 001:960 JLINK_WriteReg(R10, 0x00000000)  returns 0x00 (0000ms, 1563ms total)
T8784 001:960 JLINK_WriteReg(R11, 0x00000000)  returns 0x00 (0000ms, 1563ms total)
T8784 001:960 JLINK_WriteReg(R12, 0x00000000)  returns 0x00 (0000ms, 1563ms total)
T8784 001:960 JLINK_WriteReg(R13 (SP), 0x20001000)  returns 0x00 (0000ms, 1563ms total)
T8784 001:960 JLINK_WriteReg(R14, 0x20000001)  returns 0x00 (0000ms, 1563ms total)
T8784 001:960 JLINK_WriteReg(R15 (PC), 0x200000F4)  returns 0x00 (0000ms, 1563ms total)
T8784 001:960 JLINK_WriteReg(XPSR, 0x01000000)  returns 0x00 (0001ms, 1564ms total)
T8784 001:961 JLINK_WriteReg(MSP, 0x20001000)  returns 0x00 (0000ms, 1564ms total)
T8784 001:961 JLINK_WriteReg(PSP, 0x20001000)  returns 0x00 (0000ms, 1564ms total)
T8784 001:961 JLINK_WriteReg(CFBP, 0x00000000)  returns 0x00 (0000ms, 1564ms total)
T8784 001:961 JLINK_SetBPEx(Addr = 0x20000000, Type = 0xFFFFFFF2)  returns 0x00000008 (0000ms, 1564ms total)
T8784 001:961 JLINK_Go() (0002ms, 1566ms total)
T8784 001:963 JLINK_IsHalted()  returns FALSE (0001ms, 1567ms total)
T8784 001:969 JLINK_IsHalted()  returns FALSE (0000ms, 1566ms total)
T8784 001:971 JLINK_IsHalted()  returns FALSE (0001ms, 1567ms total)
T8784 001:974 JLINK_IsHalted()  returns FALSE (0000ms, 1566ms total)
T8784 001:981 JLINK_IsHalted()  returns FALSE (0000ms, 1566ms total)
T8784 001:984 JLINK_IsHalted()  returns FALSE (0000ms, 1566ms total)
T8784 001:986 JLINK_IsHalted()  returns FALSE (0000ms, 1566ms total)
T8784 001:988 JLINK_IsHalted()  returns FALSE (0000ms, 1566ms total)
T8784 001:990 JLINK_IsHalted()  returns FALSE (0000ms, 1566ms total)
T8784 001:994 JLINK_IsHalted() -- CPU_ReadMem(2 bytes @ 0x20000000)  returns TRUE (0003ms, 1569ms total)
T8784 001:997 JLINK_ReadReg(R15 (PC))  returns 0x20000000 (0000ms, 1566ms total)
T8784 001:997 JLINK_ClrBPEx(BPHandle = 0x00000008)  returns 0x00 (0000ms, 1566ms total)
T8784 001:997 JLINK_ReadReg(R0)  returns 0x00000000 (0000ms, 1566ms total)
T8784 001:998 JLINK_WriteMem(0x20000164, 0x0400 Bytes, ...) - Data: 3C BF C9 43 66 1B 14 BF B5 EB 04 0C 00 21 3C BF ... -- CPU_WriteMem(1024 bytes @ 0x20000164)  returns 0x400 (0003ms, 1569ms total)
T8784 002:001 JLINK_WriteReg(R0, 0x08001000)  returns 0x00 (0000ms, 1569ms total)
T8784 002:001 JLINK_WriteReg(R1, 0x00000400)  returns 0x00 (0000ms, 1569ms total)
T8784 002:001 JLINK_WriteReg(R2, 0x20000164)  returns 0x00 (0000ms, 1569ms total)
T8784 002:001 JLINK_WriteReg(R3, 0x00000000)  returns 0x00 (0000ms, 1569ms total)
T8784 002:001 JLINK_WriteReg(R4, 0x00000000)  returns 0x00 (0000ms, 1569ms total)
T8784 002:001 JLINK_WriteReg(R5, 0x00000000)  returns 0x00 (0000ms, 1569ms total)
T8784 002:001 JLINK_WriteReg(R6, 0x00000000)  returns 0x00 (0000ms, 1569ms total)
T8784 002:001 JLINK_WriteReg(R7, 0x00000000)  returns 0x00 (0000ms, 1569ms total)
T8784 002:001 JLINK_WriteReg(R8, 0x00000000)  returns 0x00 (0000ms, 1569ms total)
T8784 002:001 JLINK_WriteReg(R9, 0x20000160)  returns 0x00 (0000ms, 1569ms total)
T8784 002:001 JLINK_WriteReg(R10, 0x00000000)  returns 0x00 (0000ms, 1569ms total)
T8784 002:001 JLINK_WriteReg(R11, 0x00000000)  returns 0x00 (0000ms, 1569ms total)
T8784 002:001 JLINK_WriteReg(R12, 0x00000000)  returns 0x00 (0000ms, 1569ms total)
T8784 002:001 JLINK_WriteReg(R13 (SP), 0x20001000)  returns 0x00 (0000ms, 1569ms total)
T8784 002:001 JLINK_WriteReg(R14, 0x20000001)  returns 0x00 (0001ms, 1570ms total)
T8784 002:002 JLINK_WriteReg(R15 (PC), 0x200000F4)  returns 0x00 (0000ms, 1570ms total)
T8784 002:002 JLINK_WriteReg(XPSR, 0x01000000)  returns 0x00 (0000ms, 1570ms total)
T8784 002:002 JLINK_WriteReg(MSP, 0x20001000)  returns 0x00 (0000ms, 1570ms total)
T8784 002:002 JLINK_WriteReg(PSP, 0x20001000)  returns 0x00 (0000ms, 1570ms total)
T8784 002:002 JLINK_WriteReg(CFBP, 0x00000000)  returns 0x00 (0000ms, 1570ms total)
T8784 002:002 JLINK_SetBPEx(Addr = 0x20000000, Type = 0xFFFFFFF2)  returns 0x00000009 (0000ms, 1570ms total)
T8784 002:002 JLINK_Go() (0001ms, 1571ms total)
T8784 002:003 JLINK_IsHalted()  returns FALSE (0001ms, 1572ms total)
T8784 002:007 JLINK_IsHalted()  returns FALSE (0000ms, 1571ms total)
T8784 002:009 JLINK_IsHalted()  returns FALSE (0000ms, 1571ms total)
T8784 002:011 JLINK_IsHalted()  returns FALSE (0000ms, 1571ms total)
T8784 002:013 JLINK_IsHalted()  returns FALSE (0001ms, 1572ms total)
T8784 002:016 JLINK_IsHalted()  returns FALSE (0000ms, 1571ms total)
T8784 002:018 JLINK_IsHalted()  returns FALSE (0000ms, 1571ms total)
T8784 002:020 JLINK_IsHalted()  returns FALSE (0000ms, 1571ms total)
T8784 002:022 JLINK_IsHalted()  returns FALSE (0001ms, 1572ms total)
T8784 002:038 JLINK_IsHalted() -- CPU_ReadMem(2 bytes @ 0x20000000)  returns TRUE (0003ms, 1574ms total)
T8784 002:041 JLINK_ReadReg(R15 (PC))  returns 0x20000000 (0000ms, 1571ms total)
T8784 002:041 JLINK_ClrBPEx(BPHandle = 0x00000009)  returns 0x00 (0000ms, 1571ms total)
T8784 002:041 JLINK_ReadReg(R0)  returns 0x00000000 (0000ms, 1571ms total)
T8784 002:041 JLINK_WriteMem(0x20000164, 0x0400 Bytes, ...) - Data: 08 60 70 47 14 04 01 40 02 00 00 20 4F F0 7C 50 ... -- CPU_WriteMem(1024 bytes @ 0x20000164)  returns 0x400 (0005ms, 1576ms total)
T8784 002:046 JLINK_WriteReg(R0, 0x08001400)  returns 0x00 (0000ms, 1576ms total)
T8784 002:046 JLINK_WriteReg(R1, 0x00000400)  returns 0x00 (0000ms, 1576ms total)
T8784 002:046 JLINK_WriteReg(R2, 0x20000164)  returns 0x00 (0000ms, 1576ms total)
T8784 002:046 JLINK_WriteReg(R3, 0x00000000)  returns 0x00 (0000ms, 1576ms total)
T8784 002:046 JLINK_WriteReg(R4, 0x00000000)  returns 0x00 (0000ms, 1576ms total)
T8784 002:046 JLINK_WriteReg(R5, 0x00000000)  returns 0x00 (0000ms, 1576ms total)
T8784 002:046 JLINK_WriteReg(R6, 0x00000000)  returns 0x00 (0000ms, 1576ms total)
T8784 002:046 JLINK_WriteReg(R7, 0x00000000)  returns 0x00 (0000ms, 1576ms total)
T8784 002:046 JLINK_WriteReg(R8, 0x00000000)  returns 0x00 (0000ms, 1576ms total)
T8784 002:047 JLINK_WriteReg(R9, 0x20000160)  returns 0x00 (0000ms, 1577ms total)
T8784 002:047 JLINK_WriteReg(R10, 0x00000000)  returns 0x00 (0000ms, 1577ms total)
T8784 002:047 JLINK_WriteReg(R11, 0x00000000)  returns 0x00 (0000ms, 1577ms total)
T8784 002:047 JLINK_WriteReg(R12, 0x00000000)  returns 0x00 (0000ms, 1577ms total)
T8784 002:047 JLINK_WriteReg(R13 (SP), 0x20001000)  returns 0x00 (0000ms, 1577ms total)
T8784 002:047 JLINK_WriteReg(R14, 0x20000001)  returns 0x00 (0000ms, 1577ms total)
T8784 002:047 JLINK_WriteReg(R15 (PC), 0x200000F4)  returns 0x00 (0000ms, 1577ms total)
T8784 002:047 JLINK_WriteReg(XPSR, 0x01000000)  returns 0x00 (0000ms, 1577ms total)
T8784 002:047 JLINK_WriteReg(MSP, 0x20001000)  returns 0x00 (0000ms, 1577ms total)
T8784 002:047 JLINK_WriteReg(PSP, 0x20001000)  returns 0x00 (0000ms, 1577ms total)
T8784 002:047 JLINK_WriteReg(CFBP, 0x00000000)  returns 0x00 (0000ms, 1577ms total)
T8784 002:047 JLINK_SetBPEx(Addr = 0x20000000, Type = 0xFFFFFFF2)  returns 0x0000000A (0000ms, 1577ms total)
T8784 002:047 JLINK_Go() (0002ms, 1579ms total)
T8784 002:049 JLINK_IsHalted()  returns FALSE (0001ms, 1580ms total)
T8784 002:059 JLINK_IsHalted()  returns FALSE (0001ms, 1580ms total)
T8784 002:062 JLINK_IsHalted()  returns FALSE (0001ms, 1580ms total)
T8784 002:065 JLINK_IsHalted()  returns FALSE (0001ms, 1580ms total)
T8784 002:067 JLINK_IsHalted()  returns FALSE (0001ms, 1580ms total)
T8784 002:087 JLINK_IsHalted() -- CPU_ReadMem(2 bytes @ 0x20000000)  returns TRUE (0004ms, 1583ms total)
T8784 002:091 JLINK_ReadReg(R15 (PC))  returns 0x20000000 (0000ms, 1579ms total)
T8784 002:091 JLINK_ClrBPEx(BPHandle = 0x0000000A)  returns 0x00 (0000ms, 1579ms total)
T8784 002:091 JLINK_ReadReg(R0)  returns 0x00000000 (0000ms, 1579ms total)
T8784 002:091 JLINK_WriteMem(0x20000164, 0x0400 Bytes, ...) - Data: A0 62 20 68 80 68 00 F4 60 20 B0 F5 60 2F 13 D1 ... -- CPU_WriteMem(1024 bytes @ 0x20000164)  returns 0x400 (0005ms, 1584ms total)
T8784 002:096 JLINK_WriteReg(R0, 0x08001800)  returns 0x00 (0000ms, 1584ms total)
T8784 002:096 JLINK_WriteReg(R1, 0x00000400)  returns 0x00 (0000ms, 1584ms total)
T8784 002:096 JLINK_WriteReg(R2, 0x20000164)  returns 0x00 (0000ms, 1584ms total)
T8784 002:096 JLINK_WriteReg(R3, 0x00000000)  returns 0x00 (0000ms, 1584ms total)
T8784 002:096 JLINK_WriteReg(R4, 0x00000000)  returns 0x00 (0000ms, 1584ms total)
T8784 002:096 JLINK_WriteReg(R5, 0x00000000)  returns 0x00 (0000ms, 1584ms total)
T8784 002:096 JLINK_WriteReg(R6, 0x00000000)  returns 0x00 (0000ms, 1584ms total)
T8784 002:096 JLINK_WriteReg(R7, 0x00000000)  returns 0x00 (0000ms, 1584ms total)
T8784 002:096 JLINK_WriteReg(R8, 0x00000000)  returns 0x00 (0000ms, 1584ms total)
T8784 002:096 JLINK_WriteReg(R9, 0x20000160)  returns 0x00 (0000ms, 1584ms total)
T8784 002:096 JLINK_WriteReg(R10, 0x00000000)  returns 0x00 (0000ms, 1584ms total)
T8784 002:096 JLINK_WriteReg(R11, 0x00000000)  returns 0x00 (0001ms, 1585ms total)
T8784 002:097 JLINK_WriteReg(R12, 0x00000000)  returns 0x00 (0000ms, 1585ms total)
T8784 002:097 JLINK_WriteReg(R13 (SP), 0x20001000)  returns 0x00 (0000ms, 1585ms total)
T8784 002:097 JLINK_WriteReg(R14, 0x20000001)  returns 0x00 (0000ms, 1585ms total)
T8784 002:097 JLINK_WriteReg(R15 (PC), 0x200000F4)  returns 0x00 (0000ms, 1585ms total)
T8784 002:097 JLINK_WriteReg(XPSR, 0x01000000)  returns 0x00 (0000ms, 1585ms total)
T8784 002:097 JLINK_WriteReg(MSP, 0x20001000)  returns 0x00 (0000ms, 1585ms total)
T8784 002:097 JLINK_WriteReg(PSP, 0x20001000)  returns 0x00 (0000ms, 1585ms total)
T8784 002:097 JLINK_WriteReg(CFBP, 0x00000000)  returns 0x00 (0000ms, 1585ms total)
T8784 002:097 JLINK_SetBPEx(Addr = 0x20000000, Type = 0xFFFFFFF2)  returns 0x0000000B (0000ms, 1585ms total)
T8784 002:097 JLINK_Go() (0002ms, 1587ms total)
T8784 002:099 JLINK_IsHalted()  returns FALSE (0001ms, 1588ms total)
T8784 002:106 JLINK_IsHalted()  returns FALSE (0001ms, 1588ms total)
T8784 002:108 JLINK_IsHalted()  returns FALSE (0001ms, 1588ms total)
T8784 002:112 JLINK_IsHalted()  returns FALSE (0000ms, 1587ms total)
T8784 002:114 JLINK_IsHalted()  returns FALSE (0001ms, 1588ms total)
T8784 002:122 JLINK_IsHalted()  returns FALSE (0001ms, 1588ms total)
T8784 002:125 JLINK_IsHalted()  returns FALSE (0001ms, 1588ms total)
T8784 002:127 JLINK_IsHalted()  returns FALSE (0001ms, 1588ms total)
T8784 002:130 JLINK_IsHalted() -- CPU_ReadMem(2 bytes @ 0x20000000)  returns TRUE (0004ms, 1591ms total)
T8784 002:134 JLINK_ReadReg(R15 (PC))  returns 0x20000000 (0000ms, 1587ms total)
T8784 002:134 JLINK_ClrBPEx(BPHandle = 0x0000000B)  returns 0x00 (0000ms, 1587ms total)
T8784 002:134 JLINK_ReadReg(R0)  returns 0x00000000 (0000ms, 1587ms total)
T8784 002:135 JLINK_WriteMem(0x20000164, 0x0400 Bytes, ...) - Data: 00 68 20 F0 01 00 21 68 08 60 5C 49 20 68 88 42 ... -- CPU_WriteMem(1024 bytes @ 0x20000164)  returns 0x400 (0004ms, 1591ms total)
T8784 002:139 JLINK_WriteReg(R0, 0x08001C00)  returns 0x00 (0000ms, 1591ms total)
T8784 002:139 JLINK_WriteReg(R1, 0x00000400)  returns 0x00 (0000ms, 1591ms total)
T8784 002:139 JLINK_WriteReg(R2, 0x20000164)  returns 0x00 (0000ms, 1591ms total)
T8784 002:139 JLINK_WriteReg(R3, 0x00000000)  returns 0x00 (0000ms, 1591ms total)
T8784 002:139 JLINK_WriteReg(R4, 0x00000000)  returns 0x00 (0000ms, 1591ms total)
T8784 002:139 JLINK_WriteReg(R5, 0x00000000)  returns 0x00 (0000ms, 1591ms total)
T8784 002:139 JLINK_WriteReg(R6, 0x00000000)  returns 0x00 (0000ms, 1591ms total)
T8784 002:139 JLINK_WriteReg(R7, 0x00000000)  returns 0x00 (0000ms, 1591ms total)
T8784 002:139 JLINK_WriteReg(R8, 0x00000000)  returns 0x00 (0000ms, 1591ms total)
T8784 002:139 JLINK_WriteReg(R9, 0x20000160)  returns 0x00 (0000ms, 1591ms total)
T8784 002:139 JLINK_WriteReg(R10, 0x00000000)  returns 0x00 (0001ms, 1592ms total)
T8784 002:140 JLINK_WriteReg(R11, 0x00000000)  returns 0x00 (0000ms, 1592ms total)
T8784 002:140 JLINK_WriteReg(R12, 0x00000000)  returns 0x00 (0000ms, 1592ms total)
T8784 002:140 JLINK_WriteReg(R13 (SP), 0x20001000)  returns 0x00 (0000ms, 1592ms total)
T8784 002:140 JLINK_WriteReg(R14, 0x20000001)  returns 0x00 (0000ms, 1592ms total)
T8784 002:140 JLINK_WriteReg(R15 (PC), 0x200000F4)  returns 0x00 (0000ms, 1592ms total)
T8784 002:140 JLINK_WriteReg(XPSR, 0x01000000)  returns 0x00 (0000ms, 1592ms total)
T8784 002:140 JLINK_WriteReg(MSP, 0x20001000)  returns 0x00 (0000ms, 1592ms total)
T8784 002:140 JLINK_WriteReg(PSP, 0x20001000)  returns 0x00 (0000ms, 1592ms total)
T8784 002:140 JLINK_WriteReg(CFBP, 0x00000000)  returns 0x00 (0000ms, 1592ms total)
T8784 002:140 JLINK_SetBPEx(Addr = 0x20000000, Type = 0xFFFFFFF2)  returns 0x0000000C (0000ms, 1592ms total)
T8784 002:140 JLINK_Go() (0002ms, 1594ms total)
T8784 002:142 JLINK_IsHalted()  returns FALSE (0001ms, 1595ms total)
T8784 002:165 JLINK_IsHalted()  returns FALSE (0002ms, 1596ms total)
T8784 002:168 JLINK_IsHalted()  returns FALSE (0001ms, 1595ms total)
T8784 002:171 JLINK_IsHalted()  returns FALSE (0001ms, 1595ms total)
T8784 002:174 JLINK_IsHalted() -- CPU_ReadMem(2 bytes @ 0x20000000)  returns TRUE (0004ms, 1598ms total)
T8784 002:178 JLINK_ReadReg(R15 (PC))  returns 0x20000000 (0000ms, 1594ms total)
T8784 002:178 JLINK_ClrBPEx(BPHandle = 0x0000000C)  returns 0x00 (0000ms, 1594ms total)
T8784 002:178 JLINK_ReadReg(R0)  returns 0x00000000 (0000ms, 1594ms total)
T8784 002:179 JLINK_WriteMem(0x20000164, 0x0400 Bytes, ...) - Data: 18 80 C8 46 D8 F8 18 80 08 F0 01 08 CD F8 00 80 ... -- CPU_WriteMem(1024 bytes @ 0x20000164)  returns 0x400 (0005ms, 1599ms total)
T8784 002:184 JLINK_WriteReg(R0, 0x08002000)  returns 0x00 (0000ms, 1599ms total)
T8784 002:184 JLINK_WriteReg(R1, 0x00000400)  returns 0x00 (0000ms, 1599ms total)
T8784 002:184 JLINK_WriteReg(R2, 0x20000164)  returns 0x00 (0000ms, 1599ms total)
T8784 002:184 JLINK_WriteReg(R3, 0x00000000)  returns 0x00 (0000ms, 1599ms total)
T8784 002:184 JLINK_WriteReg(R4, 0x00000000)  returns 0x00 (0000ms, 1599ms total)
T8784 002:184 JLINK_WriteReg(R5, 0x00000000)  returns 0x00 (0000ms, 1599ms total)
T8784 002:184 JLINK_WriteReg(R6, 0x00000000)  returns 0x00 (0000ms, 1599ms total)
T8784 002:184 JLINK_WriteReg(R7, 0x00000000)  returns 0x00 (0000ms, 1599ms total)
T8784 002:184 JLINK_WriteReg(R8, 0x00000000)  returns 0x00 (0000ms, 1599ms total)
T8784 002:184 JLINK_WriteReg(R9, 0x20000160)  returns 0x00 (0001ms, 1600ms total)
T8784 002:185 JLINK_WriteReg(R10, 0x00000000)  returns 0x00 (0000ms, 1600ms total)
T8784 002:185 JLINK_WriteReg(R11, 0x00000000)  returns 0x00 (0000ms, 1600ms total)
T8784 002:185 JLINK_WriteReg(R12, 0x00000000)  returns 0x00 (0000ms, 1600ms total)
T8784 002:185 JLINK_WriteReg(R13 (SP), 0x20001000)  returns 0x00 (0000ms, 1600ms total)
T8784 002:185 JLINK_WriteReg(R14, 0x20000001)  returns 0x00 (0000ms, 1600ms total)
T8784 002:185 JLINK_WriteReg(R15 (PC), 0x200000F4)  returns 0x00 (0000ms, 1600ms total)
T8784 002:185 JLINK_WriteReg(XPSR, 0x01000000)  returns 0x00 (0000ms, 1600ms total)
T8784 002:185 JLINK_WriteReg(MSP, 0x20001000)  returns 0x00 (0000ms, 1600ms total)
T8784 002:185 JLINK_WriteReg(PSP, 0x20001000)  returns 0x00 (0000ms, 1600ms total)
T8784 002:185 JLINK_WriteReg(CFBP, 0x00000000)  returns 0x00 (0000ms, 1600ms total)
T8784 002:185 JLINK_SetBPEx(Addr = 0x20000000, Type = 0xFFFFFFF2)  returns 0x0000000D (0001ms, 1601ms total)
T8784 002:186 JLINK_Go() (0002ms, 1603ms total)
T8784 002:188 JLINK_IsHalted()  returns FALSE (0001ms, 1604ms total)
T8784 002:201 JLINK_IsHalted()  returns FALSE (0001ms, 1604ms total)
T8784 002:203 JLINK_IsHalted()  returns FALSE (0001ms, 1604ms total)
T8784 002:206 JLINK_IsHalted()  returns FALSE (0000ms, 1603ms total)
T8784 002:208 JLINK_IsHalted()  returns FALSE (0000ms, 1603ms total)
T8784 002:214 JLINK_IsHalted()  returns FALSE (0001ms, 1604ms total)
T8784 002:217 JLINK_IsHalted()  returns FALSE (0001ms, 1604ms total)
T8784 002:220 JLINK_IsHalted() -- CPU_ReadMem(2 bytes @ 0x20000000)  returns TRUE (0003ms, 1606ms total)
T8784 002:223 JLINK_ReadReg(R15 (PC))  returns 0x20000000 (0000ms, 1603ms total)
T8784 002:223 JLINK_ClrBPEx(BPHandle = 0x0000000D)  returns 0x00 (0000ms, 1603ms total)
T8784 002:223 JLINK_ReadReg(R0)  returns 0x00000000 (0001ms, 1604ms total)
T8784 002:224 JLINK_WriteMem(0x20000164, 0x0400 Bytes, ...) - Data: 44 68 00 68 00 F0 80 70 00 B3 01 A8 C4 F3 83 41 ... -- CPU_WriteMem(1024 bytes @ 0x20000164)  returns 0x400 (0005ms, 1609ms total)
